name,type,start_time,duration,data,error,
Async Serial,data,-0.155899232,8.25E-05,0x00,framing,
Async Serial,data,0.005207144,8.25E-05,0xA0,,
Async Serial,data,0.005293656,8.25E-05,0x12,#NUM!,#NUM!
Async Serial,data,0.005380192,8.25E-05,0x01,,
Async Serial,data,0.005466696,8.25E-05,0x00,,
Async Serial,data,0.005553224,8.25E-05,0x03,,
Async Serial,data,0.005639712,8.25E-05,0x00,,
Async Serial,data,0.005726248,8.25E-05,0x02,,
Async Serial,data,0.005812752,8.25E-05,0x00,,
Async Serial,data,0.00589928,8.25E-05,0x04,,
Async Serial,data,0.005985784,8.25E-05,0x00,,
Async Serial,data,0.006072312,8.25E-05,0x29,,
Async Serial,data,0.006158816,8.25E-05,0x01,,
Async Serial,data,0.006245344,8.25E-05,0x01,,
Async Serial,data,0.006331856,8.25E-05,0x00,,
Async Serial,data,0.006418392,8.25E-05,0x00,,
Async Serial,data,0.006504912,8.25E-05,0x02,,
Async Serial,data,0.006591456,8.25E-05,0x01,,
Async Serial,data,0.006677976,8.25E-05,0x00,,
Async Serial,data,0.006764512,8.25E-05,0x4C,,
Async Serial,data,0.006851032,8.25E-05,0x44,,
Async Serial,data,0.006937576,8.25E-05,0xF1,,
Async Serial,data,0.007024096,8.25E-05,0x7F,,
Async Serial,data,0.019477784,8.25E-05,0x20,,
Async Serial,data,0.01956428,8.25E-05,0x02,,
Async Serial,data,0.0196508,8.25E-05,0x01,,
Async Serial,data,0.019737272,8.25E-05,0x19,,
Async Serial,data,0.019823792,8.25E-05,0x00,,
Async Serial,data,0.019910288,8.25E-05,0x00,,
Async Serial,data,0.034321024,8.25E-05,0x20,,
Async Serial,data,0.03440752,8.25E-05,0x02,,
Async Serial,data,0.034494048,8.25E-05,0x05,,
Async Serial,data,0.034580536,8.25E-05,0x03,,
Async Serial,data,0.034667056,8.25E-05,0x00,,
Async Serial,data,0.03475356,8.25E-05,0x00,,
Async Serial,data,0.039626152,8.25E-05,0xA0,,
Async Serial,data,0.03971264,8.25E-05,0x30,,
Async Serial,data,0.03979916,8.25E-05,0x05,,
Async Serial,data,0.039885656,8.25E-05,0x01,,
Async Serial,data,0.039972176,8.25E-05,0x03,,
Async Serial,data,0.040058664,8.25E-05,0x8C,,
Async Serial,data,0.040145184,8.25E-05,0x6D,,
Async Serial,data,0.04023168,8.25E-05,0x7E,,
Async Serial,data,0.040318192,8.25E-05,0xED,,
Async Serial,data,0.040404672,8.25E-05,0x80,,
Async Serial,data,0.040491184,8.25E-05,0xF5,,
Async Serial,data,0.040577656,8.25E-05,0x01,,
Async Serial,data,0.04066416,8.25E-05,0xFF,,
Async Serial,data,0.040750648,8.25E-05,0x01,,
Async Serial,data,0.040837144,8.25E-05,0x01,,
Async Serial,data,0.040923632,8.25E-05,0xFF,,
Async Serial,data,0.041010152,8.25E-05,0x7F,,
Async Serial,data,0.04109664,8.25E-05,0xBA,,
Async Serial,data,0.04118316,8.25E-05,0x25,,
Async Serial,data,0.041269648,8.25E-05,0x00,,
Async Serial,data,0.041356168,8.25E-05,0x00,,
Async Serial,data,0.041442664,8.25E-05,0x1E,,
Async Serial,data,0.041529184,8.25E-05,0x02,,
Async Serial,data,0.041615672,8.25E-05,0x01,,
Async Serial,data,0.041702184,8.25E-05,0x06,,
Async Serial,data,0.041788672,8.25E-05,0x1A,,
Async Serial,data,0.041875192,8.25E-05,0xFF,,
Async Serial,data,0.04196168,8.25E-05,0x4C,,
Async Serial,data,0.0420482,8.25E-05,0x00,,
Async Serial,data,0.042134696,8.25E-05,0x02,,
Async Serial,data,0.042221208,8.25E-05,0x15,,
Async Serial,data,0.042307704,8.25E-05,0x44,,
Async Serial,data,0.042394232,8.25E-05,0x44,,
Async Serial,data,0.042480728,8.25E-05,0x44,,
Async Serial,data,0.042567248,8.25E-05,0x44,,
Async Serial,data,0.042653744,8.25E-05,0x44,,
Async Serial,data,0.042740272,8.25E-05,0x44,,
Async Serial,data,0.042826776,8.25E-05,0x44,,
Async Serial,data,0.042913312,8.25E-05,0x44,,
Async Serial,data,0.042999832,8.25E-05,0x44,,
Async Serial,data,0.043086368,8.25E-05,0x44,,
Async Serial,data,0.043172888,8.25E-05,0x44,,
Async Serial,data,0.043259416,8.25E-05,0x44,,
Async Serial,data,0.04334592,8.25E-05,0x44,,
Async Serial,data,0.043432456,8.25E-05,0x44,,
Async Serial,data,0.043518952,8.25E-05,0x44,,
Async Serial,data,0.04360548,8.25E-05,0x44,,
Async Serial,data,0.043691976,8.25E-05,0x11,,
Async Serial,data,0.043778488,8.25E-05,0x5C,,
Async Serial,data,0.043864984,8.25E-05,0x00,,
Async Serial,data,0.043951512,8.25E-05,0xDE,,
Async Serial,data,0.044038016,8.25E-05,0xBF,,
Async Serial,data,0.045864432,8.25E-05,0xA0,,
Async Serial,data,0.04595092,8.25E-05,0x30,,
Async Serial,data,0.046037432,8.25E-05,0x05,,
Async Serial,data,0.046123912,8.25E-05,0x01,,
Async Serial,data,0.046210424,8.25E-05,0x03,,
Async Serial,data,0.046296912,8.25E-05,0x52,,
Async Serial,data,0.046383432,8.25E-05,0xC0,,
Async Serial,data,0.046469936,8.25E-05,0xE3,,
Async Serial,data,0.046556472,8.25E-05,0x2C,,
Async Serial,data,0.046642976,8.25E-05,0xF0,,
Async Serial,data,0.046729496,8.25E-05,0xD6,,
Async Serial,data,0.046815992,8.25E-05,0x01,,
Async Serial,data,0.046902512,8.25E-05,0xFF,,
Async Serial,data,0.046989008,8.25E-05,0x01,,
Async Serial,data,0.04707552,8.25E-05,0x01,,
Async Serial,data,0.047162008,8.25E-05,0xFF,,
Async Serial,data,0.047248528,8.25E-05,0x7F,,
Async Serial,data,0.047335016,8.25E-05,0xBA,,
Async Serial,data,0.047421544,8.25E-05,0x26,,
Async Serial,data,0.04750804,8.25E-05,0x00,,
Async Serial,data,0.047594568,8.25E-05,0x00,,
Async Serial,data,0.047681064,8.25E-05,0x1E,,
Async Serial,data,0.047767584,8.25E-05,0x02,,
Async Serial,data,0.04785408,8.25E-05,0x01,,
Async Serial,data,0.0479406,8.25E-05,0x06,,
Async Serial,data,0.048027104,8.25E-05,0x1A,,
Async Serial,data,0.048113624,8.25E-05,0xFF,,
Async Serial,data,0.04820012,8.25E-05,0x4C,,
Async Serial,data,0.04828664,8.25E-05,0x00,,
Async Serial,data,0.048373144,8.25E-05,0x02,,
Async Serial,data,0.048459664,8.25E-05,0x15,,
Async Serial,data,0.048546152,8.25E-05,0xF7,,
Async Serial,data,0.048632664,8.25E-05,0x82,,
Async Serial,data,0.048719152,8.25E-05,0x6D,,
Async Serial,data,0.048805672,8.25E-05,0xA6,,
Async Serial,data,0.048892168,8.25E-05,0x4F,,
Async Serial,data,0.048978696,8.25E-05,0xA2,,
Async Serial,data,0.049065192,8.25E-05,0x4E,,
Async Serial,data,0.049151712,8.25E-05,0x98,,
Async Serial,data,0.049238208,8.25E-05,0x80,,
Async Serial,data,0.049324728,8.25E-05,0x24,,
Async Serial,data,0.049411232,8.25E-05,0xBC,,
Async Serial,data,0.049497752,8.25E-05,0x5B,,
Async Serial,data,0.049584248,8.25E-05,0x71,,
Async Serial,data,0.049670768,8.25E-05,0xE0,,
Async Serial,data,0.049757264,8.25E-05,0x89,,
Async Serial,data,0.049843784,8.25E-05,0x3E,,
Async Serial,data,0.04993028,8.25E-05,0xA2,,
Async Serial,data,0.0500168,8.25E-05,0x40,,
Async Serial,data,0.050103296,8.25E-05,0xF1,,
Async Serial,data,0.050189808,8.25E-05,0xAD,,
Async Serial,data,0.050276304,8.25E-05,0xB3,,
Async Serial,data,0.056301392,8.25E-05,0xA0,,
Async Serial,data,0.056387896,8.25E-05,0x30,,
Async Serial,data,0.056474432,8.25E-05,0x05,,
Async Serial,data,0.056560928,8.25E-05,0x01,,
Async Serial,data,0.056647464,8.25E-05,0x03,,
Async Serial,data,0.056733976,8.25E-05,0x13,,
Async Serial,data,0.056820512,8.25E-05,0xDD,,
Async Serial,data,0.056907024,8.25E-05,0x8E,,
Async Serial,data,0.056993552,8.25E-05,0x61,,
Async Serial,data,0.057080056,8.25E-05,0x56,,
Async Serial,data,0.057166584,8.25E-05,0xE9,,
Async Serial,data,0.057253088,8.25E-05,0x01,,
Async Serial,data,0.057339616,8.25E-05,0xFF,,
Async Serial,data,0.057426128,8.25E-05,0x01,,
Async Serial,data,0.057512672,8.25E-05,0x01,,
Async Serial,data,0.057599192,8.25E-05,0xFF,,
Async Serial,data,0.057685736,8.25E-05,0x7F,,
Async Serial,data,0.057772256,8.25E-05,0xAF,,
Async Serial,data,0.0578588,8.25E-05,0x27,,
Async Serial,data,0.057945304,8.25E-05,0x00,,
Async Serial,data,0.058031824,8.25E-05,0x00,,
Async Serial,data,0.058118328,8.25E-05,0x1E,,
Async Serial,data,0.058204848,8.25E-05,0x02,,
Async Serial,data,0.058291336,8.25E-05,0x01,,
Async Serial,data,0.058377856,8.25E-05,0x06,,
Async Serial,data,0.058464352,8.25E-05,0x1A,,
Async Serial,data,0.058550872,8.25E-05,0xFF,,
Async Serial,data,0.058637368,8.25E-05,0x4C,,
Async Serial,data,0.05872388,8.25E-05,0x00,,
Async Serial,data,0.058810376,8.25E-05,0x02,,
Async Serial,data,0.058896888,8.25E-05,0x15,,
Async Serial,data,0.058983376,8.25E-05,0xF7,,
Async Serial,data,0.059069888,8.25E-05,0x82,,
Async Serial,data,0.059156376,8.25E-05,0x6D,,
Async Serial,data,0.059242896,8.25E-05,0xA6,,
Async Serial,data,0.059329392,8.25E-05,0x4F,,
Async Serial,data,0.059415912,8.25E-05,0xA2,,
Async Serial,data,0.059502408,8.25E-05,0x4E,,
Async Serial,data,0.05958892,8.25E-05,0x98,,
Async Serial,data,0.059675416,8.25E-05,0x80,,
Async Serial,data,0.059761944,8.25E-05,0x24,,
Async Serial,data,0.05984844,8.25E-05,0xBC,,
Async Serial,data,0.059934952,8.25E-05,0x5B,,
Async Serial,data,0.060021448,8.25E-05,0x71,,
Async Serial,data,0.060107968,8.25E-05,0xE0,,
Async Serial,data,0.060194472,8.25E-05,0x89,,
Async Serial,data,0.060280992,8.25E-05,0x3E,,
Async Serial,data,0.060367496,8.25E-05,0xD9,,
Async Serial,data,0.060454016,8.25E-05,0x03,,
Async Serial,data,0.06054052,8.25E-05,0x02,,
Async Serial,data,0.060627056,8.25E-05,0x2B,,
Async Serial,data,0.06071356,8.25E-05,0xB3,,
Async Serial,data,0.061475528,8.25E-05,0xA0,,
Async Serial,data,0.061562032,8.25E-05,0x30,,
Async Serial,data,0.06164856,8.25E-05,0x05,,
Async Serial,data,0.061735072,8.25E-05,0x01,,
Async Serial,data,0.061821624,8.25E-05,0x03,,
Async Serial,data,0.061908144,8.25E-05,0xD3,,
Async Serial,data,0.06199468,8.25E-05,0xF9,,
Async Serial,data,0.0620812,8.25E-05,0x41,,
Async Serial,data,0.062167744,8.25E-05,0xC2,,
Async Serial,data,0.062254264,8.25E-05,0xEC,,
Async Serial,data,0.0623408,8.25E-05,0xF9,,
Async Serial,data,0.06242732,8.25E-05,0x01,,
Async Serial,data,0.062513864,8.25E-05,0xFF,,
Async Serial,data,0.062600376,8.25E-05,0x01,,
Async Serial,data,0.062686912,8.25E-05,0x01,,
Async Serial,data,0.062773432,8.25E-05,0xFF,,
Async Serial,data,0.062859968,8.25E-05,0x7F,,
Async Serial,data,0.062946496,8.25E-05,0xBB,,
Async Serial,data,0.06303304,8.25E-05,0x27,,
Async Serial,data,0.06311956,8.25E-05,0x00,,
Async Serial,data,0.063206104,8.25E-05,0x00,,
Async Serial,data,0.063292616,8.25E-05,0x1E,,
Async Serial,data,0.06337916,8.25E-05,0x02,,
Async Serial,data,0.063465672,8.25E-05,0x01,,
Async Serial,data,0.063552208,8.25E-05,0x06,,
Async Serial,data,0.063638728,8.25E-05,0x1A,,
Async Serial,data,0.063725264,8.25E-05,0xFF,,
Async Serial,data,0.063811768,8.25E-05,0x4C,,
Async Serial,data,0.063898312,8.25E-05,0x00,,
Async Serial,data,0.0639848,8.25E-05,0x02,,
Async Serial,data,0.064071328,8.25E-05,0x15,,
Async Serial,data,0.06415784,8.25E-05,0x11,,
Async Serial,data,0.064244376,8.25E-05,0x11,,
Async Serial,data,0.064330896,8.25E-05,0x11,,
Async Serial,data,0.064417432,8.25E-05,0x11,,
Async Serial,data,0.06450396,8.25E-05,0x11,,
Async Serial,data,0.064590504,8.25E-05,0x11,,
Async Serial,data,0.064677024,8.25E-05,0x11,,
Async Serial,data,0.064763568,8.25E-05,0x11,,
Async Serial,data,0.064850088,8.25E-05,0x11,,
Async Serial,data,0.064936616,8.25E-05,0x11,,
Async Serial,data,0.06502312,8.25E-05,0x11,,
Async Serial,data,0.065109648,8.25E-05,0x11,,
Async Serial,data,0.065196152,8.25E-05,0x11,,
Async Serial,data,0.065282664,8.25E-05,0x11,,
Async Serial,data,0.06536916,8.25E-05,0x11,,
Async Serial,data,0.065455688,8.25E-05,0x11,,
Async Serial,data,0.065542192,8.25E-05,0x04,,
Async Serial,data,0.06562872,8.25E-05,0x57,,
Async Serial,data,0.065715232,8.25E-05,0x00,,
Async Serial,data,0.065801752,8.25E-05,0x16,,
Async Serial,data,0.065888248,8.25E-05,0xB8,,
Async Serial,data,0.066212328,8.25E-05,0xA0,,
Async Serial,data,0.066298832,8.25E-05,0x30,,
Async Serial,data,0.06638536,8.25E-05,0x05,,
Async Serial,data,0.066471864,8.25E-05,0x01,,
Async Serial,data,0.0665584,8.25E-05,0x03,,
Async Serial,data,0.066644904,8.25E-05,0x26,,
Async Serial,data,0.066731448,8.25E-05,0x19,,
Async Serial,data,0.06681796,8.25E-05,0x8A,,
Async Serial,data,0.066904504,8.25E-05,0x8E,,
Async Serial,data,0.066991016,8.25E-05,0x33,,
Async Serial,data,0.06707756,8.25E-05,0xF0,,
Async Serial,data,0.06716408,8.25E-05,0x01,,
Async Serial,data,0.067250624,8.25E-05,0xFF,,
Async Serial,data,0.067337144,8.25E-05,0x01,,
Async Serial,data,0.067423696,8.25E-05,0x01,,
Async Serial,data,0.067510216,8.25E-05,0xFF,,
Async Serial,data,0.06759676,8.25E-05,0x7F,,
Async Serial,data,0.06768328,8.25E-05,0xBA,,
Async Serial,data,0.067769816,8.25E-05,0x27,,
Async Serial,data,0.067856312,8.25E-05,0x00,,
Async Serial,data,0.06794284,8.25E-05,0x00,,
Async Serial,data,0.068029352,8.25E-05,0x1E,,
Async Serial,data,0.06811588,8.25E-05,0x02,,
Async Serial,data,0.068202392,8.25E-05,0x01,,
Async Serial,data,0.068288928,8.25E-05,0x06,,
Async Serial,data,0.068375432,8.25E-05,0x1A,,
Async Serial,data,0.06846196,8.25E-05,0xFF,,
Async Serial,data,0.068548472,8.25E-05,0x4C,,
Async Serial,data,0.068635,8.25E-05,0x00,,
Async Serial,data,0.068721504,8.25E-05,0x02,,
Async Serial,data,0.068808032,8.25E-05,0x15,,
Async Serial,data,0.068894536,8.25E-05,0xF7,,
Async Serial,data,0.068981064,8.25E-05,0x82,,
Async Serial,data,0.069067568,8.25E-05,0x6D,,
Async Serial,data,0.069154096,8.25E-05,0xA6,,
Async Serial,data,0.0692406,8.25E-05,0x4F,,
Async Serial,data,0.069327128,8.25E-05,0xA2,,
Async Serial,data,0.069413632,8.25E-05,0x4E,,
Async Serial,data,0.069500168,8.25E-05,0x98,,
Async Serial,data,0.06958668,8.25E-05,0x80,,
Async Serial,data,0.069673216,8.25E-05,0x24,,
Async Serial,data,0.06975972,8.25E-05,0xBC,,
Async Serial,data,0.069846256,8.25E-05,0x5B,,
Async Serial,data,0.06993276,8.25E-05,0x71,,
Async Serial,data,0.070019296,8.25E-05,0xE0,,
Async Serial,data,0.0701058,8.25E-05,0x89,,
Async Serial,data,0.070192328,8.25E-05,0x3E,,
Async Serial,data,0.070278832,8.25E-05,0x54,,
Async Serial,data,0.070365352,8.25E-05,0x0B,,
Async Serial,data,0.070451856,8.25E-05,0xB7,,
Async Serial,data,0.070538384,8.25E-05,0x23,,
Async Serial,data,0.070624888,8.25E-05,0xB3,,
Async Serial,data,0.07078608,8.25E-05,0xA0,,
Async Serial,data,0.070872584,8.25E-05,0x30,,
Async Serial,data,0.07095912,8.25E-05,0x05,,
Async Serial,data,0.071045624,8.25E-05,0x01,,
Async Serial,data,0.071132152,8.25E-05,0x03,,
Async Serial,data,0.071218648,8.25E-05,0xA3,,
Async Serial,data,0.071305152,8.25E-05,0xC8,,
Async Serial,data,0.071391632,8.25E-05,0xB4,,
Async Serial,data,0.071478136,8.25E-05,0xB8,,
Async Serial,data,0.071564616,8.25E-05,0x70,,
Async Serial,data,0.07165112,8.25E-05,0xE8,,
Async Serial,data,0.0717376,8.25E-05,0x01,,
Async Serial,data,0.07182412,8.25E-05,0xFF,,
Async Serial,data,0.071910616,8.25E-05,0x01,,
Async Serial,data,0.071997128,8.25E-05,0x01,,
Async Serial,data,0.072083624,8.25E-05,0xFF,,
Async Serial,data,0.072170144,8.25E-05,0x7F,,
Async Serial,data,0.07225664,8.25E-05,0xC0,,
Async Serial,data,0.07234316,8.25E-05,0x25,,
Async Serial,data,0.07242964,8.25E-05,0x00,,
Async Serial,data,0.072516152,8.25E-05,0x00,,
Async Serial,data,0.072602624,8.25E-05,0x1E,,
Async Serial,data,0.072689144,8.25E-05,0x02,,
Async Serial,data,0.072775648,8.25E-05,0x01,,
Async Serial,data,0.072862168,8.25E-05,0x06,,
Async Serial,data,0.072948648,8.25E-05,0x1A,,
Async Serial,data,0.07303516,8.25E-05,0xFF,,
Async Serial,data,0.073121656,8.25E-05,0x4C,,
Async Serial,data,0.073208184,8.25E-05,0x00,,
Async Serial,data,0.07329468,8.25E-05,0x02,,
Async Serial,data,0.073381208,8.25E-05,0x15,,
Async Serial,data,0.073467704,8.25E-05,0xF7,,
Async Serial,data,0.073554232,8.25E-05,0x82,,
Async Serial,data,0.073640736,8.25E-05,0x6D,,
Async Serial,data,0.073727264,8.25E-05,0xA6,,
Async Serial,data,0.073813768,8.25E-05,0x4F,,
Async Serial,data,0.073900296,8.25E-05,0xA2,,
Async Serial,data,0.073986792,8.25E-05,0x4E,,
Async Serial,data,0.074073312,8.25E-05,0x98,,
Async Serial,data,0.074159816,8.25E-05,0x80,,
Async Serial,data,0.074246336,8.25E-05,0x24,,
Async Serial,data,0.07433284,8.25E-05,0xBC,,
Async Serial,data,0.074419368,8.25E-05,0x5B,,
Async Serial,data,0.074505872,8.25E-05,0x71,,
Async Serial,data,0.074592392,8.25E-05,0xE0,,
Async Serial,data,0.074678896,8.25E-05,0x89,,
Async Serial,data,0.074765424,8.25E-05,0x3E,,
Async Serial,data,0.074851928,8.25E-05,0x64,,
Async Serial,data,0.074938456,8.25E-05,0xAD,,
Async Serial,data,0.075024952,8.25E-05,0x12,,
Async Serial,data,0.075111472,8.25E-05,0x2F,,
Async Serial,data,0.075197976,8.25E-05,0xB3,,
Async Serial,data,0.075359664,8.25E-05,0xA0,,
Async Serial,data,0.075446176,8.25E-05,0x30,,
Async Serial,data,0.075532704,8.25E-05,0x05,,
Async Serial,data,0.075619208,8.25E-05,0x01,,
Async Serial,data,0.075705736,8.25E-05,0x03,,
Async Serial,data,0.075792248,8.25E-05,0xA6,,
Async Serial,data,0.075878784,8.25E-05,0x86,,
Async Serial,data,0.075965304,8.25E-05,0x47,,
Async Serial,data,0.07605184,8.25E-05,0x14,,
Async Serial,data,0.076138352,8.25E-05,0x4C,,
Async Serial,data,0.076224896,8.25E-05,0xC7,,
Async Serial,data,0.076311408,8.25E-05,0x01,,
Async Serial,data,0.076397952,8.25E-05,0xFF,,
Async Serial,data,0.076484464,8.25E-05,0x01,,
Async Serial,data,0.076571,8.25E-05,0x01,,
Async Serial,data,0.07665752,8.25E-05,0xFF,,
Async Serial,data,0.076744056,8.25E-05,0x7F,,
Async Serial,data,0.076830568,8.25E-05,0xB4,,
Async Serial,data,0.076917112,8.25E-05,0x25,,
Async Serial,data,0.077003624,8.25E-05,0x00,,
Async Serial,data,0.077090168,8.25E-05,0x00,,
Async Serial,data,0.07717668,8.25E-05,0x1E,,
Async Serial,data,0.077263232,8.25E-05,0x02,,
Async Serial,data,0.077349752,8.25E-05,0x01,,
Async Serial,data,0.077436304,8.25E-05,0x06,,
Async Serial,data,0.077522816,8.25E-05,0x1A,,
Async Serial,data,0.07760936,8.25E-05,0xFF,,
Async Serial,data,0.077695872,8.25E-05,0x4C,,
Async Serial,data,0.077782416,8.25E-05,0x00,,
Async Serial,data,0.077868928,8.25E-05,0x02,,
Async Serial,data,0.077955472,8.25E-05,0x15,,
Async Serial,data,0.078041976,8.25E-05,0xF7,,
Async Serial,data,0.078128512,8.25E-05,0x82,,
Async Serial,data,0.078215032,8.25E-05,0x6D,,
Async Serial,data,0.078301568,8.25E-05,0xA6,,
Async Serial,data,0.07838808,8.25E-05,0x4F,,
Async Serial,data,0.078474616,8.25E-05,0xA2,,
Async Serial,data,0.078561128,8.25E-05,0x4E,,
Async Serial,data,0.078647672,8.25E-05,0x98,,
Async Serial,data,0.078734184,8.25E-05,0x80,,
Async Serial,data,0.078820712,8.25E-05,0x24,,
Async Serial,data,0.078907224,8.25E-05,0xBC,,
Async Serial,data,0.07899376,8.25E-05,0x5B,,
Async Serial,data,0.079080264,8.25E-05,0x71,,
Async Serial,data,0.079166784,8.25E-05,0xE0,,
Async Serial,data,0.079253296,8.25E-05,0x89,,
Async Serial,data,0.079339832,8.25E-05,0x3E,,
Async Serial,data,0.079426336,8.25E-05,0x35,,
Async Serial,data,0.079512872,8.25E-05,0x4F,,
Async Serial,data,0.079599384,8.25E-05,0x3D,,
Async Serial,data,0.07968592,8.25E-05,0x9C,,
Async Serial,data,0.07977244,8.25E-05,0xB3,,
Async Serial,data,0.079932032,8.25E-05,0xA0,,
Async Serial,data,0.080018536,8.25E-05,0x24,,
Async Serial,data,0.080105056,8.25E-05,0x05,,
Async Serial,data,0.080191552,8.25E-05,0x01,,
Async Serial,data,0.080278072,8.25E-05,0x03,,
Async Serial,data,0.080364576,8.25E-05,0xEA,,
Async Serial,data,0.080451104,8.25E-05,0xE8,,
Async Serial,data,0.080537616,8.25E-05,0x6D,,
Async Serial,data,0.080624136,8.25E-05,0x2A,,
Async Serial,data,0.08071064,8.25E-05,0xFA,,
Async Serial,data,0.08079716,8.25E-05,0xEC,,
Async Serial,data,0.080883656,8.25E-05,0x01,,
Async Serial,data,0.080970184,8.25E-05,0xFF,,
Async Serial,data,0.08105668,8.25E-05,0x01,,
Async Serial,data,0.081143208,8.25E-05,0x01,,
Async Serial,data,0.081229712,8.25E-05,0xFF,,
Async Serial,data,0.08131624,8.25E-05,0x7F,,
Async Serial,data,0.081402744,8.25E-05,0xC3,,
Async Serial,data,0.081489264,8.25E-05,0x25,,
Async Serial,data,0.081575768,8.25E-05,0x00,,
Async Serial,data,0.081662288,8.25E-05,0x00,,
Async Serial,data,0.081748784,8.25E-05,0x12,,
Async Serial,data,0.081835312,8.25E-05,0x02,,
Async Serial,data,0.081921808,8.25E-05,0x01,,
Async Serial,data,0.082008336,8.25E-05,0x06,,
Async Serial,data,0.082094832,8.25E-05,0x03,,
Async Serial,data,0.082181344,8.25E-05,0x03,,
